time,V(isense_adc),V(isense_raw),V(shunt_node)
0.000000000000000e+00,0.000000000000000e+00,0.000000000000000e+00,0.000000000000000e+00
4.999999719812465e-11,0.000000000000000e+00,0.000000000000000e+00,0.000000000000000e+00
9.999999439624929e-11,0.000000000000000e+00,0.000000000000000e+00,0.000000000000000e+00
1.999999887924986e-10,0.000000000000000e+00,0.000000000000000e+00,0.000000000000000e+00
3.999999775849972e-10,0.000000000000000e+00,0.000000000000000e+00,0.000000000000000e+00
7.999999551699943e-10,0.000000000000000e+00,0.000000000000000e+00,0.000000000000000e+00
1.599999910339989e-09,0.000000000000000e+00,0.000000000000000e+00,0.000000000000000e+00
3.199999820679977e-09,0.000000000000000e+00,0.000000000000000e+00,0.000000000000000e+00
6.399999641359955e-09,0.000000000000000e+00,0.000000000000000e+00,0.000000000000000e+00
1.279999928271991e-08,0.000000000000000e+00,0.000000000000000e+00,0.000000000000000e+00
2.559999856543982e-08,0.000000000000000e+00,0.000000000000000e+00,0.000000000000000e+00
5.119999713087964e-08,0.000000000000000e+00,0.000000000000000e+00,0.000000000000000e+00
1.023999942617593e-07,0.000000000000000e+00,0.000000000000000e+00,0.000000000000000e+00
2.047999885235186e-07,0.000000000000000e+00,0.000000000000000e+00,0.000000000000000e+00
4.095999770470371e-07,0.000000000000000e+00,0.000000000000000e+00,0.000000000000000e+00
8.191999540940742e-07,0.000000000000000e+00,0.000000000000000e+00,0.000000000000000e+00
1.638399908188148e-06,0.000000000000000e+00,0.000000000000000e+00,0.000000000000000e+00
3.276799816376297e-06,0.000000000000000e+00,0.000000000000000e+00,0.000000000000000e+00
6.553599632752594e-06,0.000000000000000e+00,0.000000000000000e+00,0.000000000000000e+00
1.155359963275259e-05,0.000000000000000e+00,0.000000000000000e+00,0.000000000000000e+00
1.655359963275259e-05,0.000000000000000e+00,0.000000000000000e+00,0.000000000000000e+00
2.155359963275259e-05,0.000000000000000e+00,0.000000000000000e+00,0.000000000000000e+00
2.655359963275259e-05,0.000000000000000e+00,0.000000000000000e+00,0.000000000000000e+00
3.155359963275259e-05,0.000000000000000e+00,0.000000000000000e+00,0.000000000000000e+00
3.655359963275259e-05,0.000000000000000e+00,0.000000000000000e+00,0.000000000000000e+00
4.155359963275259e-05,0.000000000000000e+00,0.000000000000000e+00,0.000000000000000e+00
4.655359963275259e-05,0.000000000000000e+00,0.000000000000000e+00,0.000000000000000e+00
5.155359963275259e-05,0.000000000000000e+00,0.000000000000000e+00,0.000000000000000e+00
5.655359963275259e-05,0.000000000000000e+00,0.000000000000000e+00,0.000000000000000e+00
6.155359963275259e-05,0.000000000000000e+00,0.000000000000000e+00,0.000000000000000e+00
6.655359963275259e-05,0.000000000000000e+00,0.000000000000000e+00,0.000000000000000e+00
7.155359963275259e-05,0.000000000000000e+00,0.000000000000000e+00,0.000000000000000e+00
7.655359963275259e-05,0.000000000000000e+00,0.000000000000000e+00,0.000000000000000e+00
8.155359963275259e-05,0.000000000000000e+00,0.000000000000000e+00,0.000000000000000e+00
8.655359963275259e-05,0.000000000000000e+00,0.000000000000000e+00,0.000000000000000e+00
9.155359963275259e-05,0.000000000000000e+00,0.000000000000000e+00,0.000000000000000e+00
9.655359963275259e-05,0.000000000000000e+00,0.000000000000000e+00,0.000000000000000e+00
1.015535996327526e-04,0.000000000000000e+00,0.000000000000000e+00,0.000000000000000e+00
1.065535996327526e-04,0.000000000000000e+00,0.000000000000000e+00,0.000000000000000e+00
1.115535996327526e-04,0.000000000000000e+00,0.000000000000000e+00,0.000000000000000e+00
1.165535996327526e-04,0.000000000000000e+00,0.000000000000000e+00,0.000000000000000e+00
1.215535996327526e-04,0.000000000000000e+00,0.000000000000000e+00,0.000000000000000e+00
1.265535996327526e-04,0.000000000000000e+00,0.000000000000000e+00,0.000000000000000e+00
1.315535996327526e-04,0.000000000000000e+00,0.000000000000000e+00,0.000000000000000e+00
1.365535996327526e-04,0.000000000000000e+00,0.000000000000000e+00,0.000000000000000e+00
1.415535996327526e-04,0.000000000000000e+00,0.000000000000000e+00,0.000000000000000e+00
1.465535996327526e-04,0.000000000000000e+00,0.000000000000000e+00,0.000000000000000e+00
1.515535996327526e-04,0.000000000000000e+00,0.000000000000000e+00,0.000000000000000e+00
1.565535996327527e-04,0.000000000000000e+00,0.000000000000000e+00,0.000000000000000e+00
1.615535996327527e-04,0.000000000000000e+00,0.000000000000000e+00,0.000000000000000e+00
1.665535996327527e-04,0.000000000000000e+00,0.000000000000000e+00,0.000000000000000e+00
1.715535996327527e-04,0.000000000000000e+00,0.000000000000000e+00,0.000000000000000e+00
1.765535996327527e-04,0.000000000000000e+00,0.000000000000000e+00,0.000000000000000e+00
1.815535996327527e-04,0.000000000000000e+00,0.000000000000000e+00,0.000000000000000e+00
1.865535996327527e-04,0.000000000000000e+00,0.000000000000000e+00,0.000000000000000e+00
1.915535996327528e-04,0.000000000000000e+00,0.000000000000000e+00,0.000000000000000e+00
1.965535996327528e-04,0.000000000000000e+00,0.000000000000000e+00,0.000000000000000e+00
2.015535996327528e-04,0.000000000000000e+00,0.000000000000000e+00,0.000000000000000e+00
2.065535996327528e-04,0.000000000000000e+00,0.000000000000000e+00,0.000000000000000e+00
2.115535996327528e-04,0.000000000000000e+00,0.000000000000000e+00,0.000000000000000e+00
2.165535996327528e-04,0.000000000000000e+00,0.000000000000000e+00,0.000000000000000e+00
2.215535996327528e-04,0.000000000000000e+00,0.000000000000000e+00,0.000000000000000e+00
2.265535996327528e-04,0.000000000000000e+00,0.000000000000000e+00,0.000000000000000e+00
2.315535996327529e-04,0.000000000000000e+00,0.000000000000000e+00,0.000000000000000e+00
2.365535996327529e-04,0.000000000000000e+00,0.000000000000000e+00,0.000000000000000e+00
2.415535996327529e-04,0.000000000000000e+00,0.000000000000000e+00,0.000000000000000e+00
2.465535996327529e-04,0.000000000000000e+00,0.000000000000000e+00,0.000000000000000e+00
2.515535996327529e-04,0.000000000000000e+00,0.000000000000000e+00,0.000000000000000e+00
2.565535996327529e-04,0.000000000000000e+00,0.000000000000000e+00,0.000000000000000e+00
2.615535996327529e-04,0.000000000000000e+00,0.000000000000000e+00,0.000000000000000e+00
2.665535996327530e-04,0.000000000000000e+00,0.000000000000000e+00,0.000000000000000e+00
2.715535996327530e-04,0.000000000000000e+00,0.000000000000000e+00,0.000000000000000e+00
2.765535996327530e-04,0.000000000000000e+00,0.000000000000000e+00,0.000000000000000e+00
2.815535996327530e-04,0.000000000000000e+00,0.000000000000000e+00,0.000000000000000e+00
2.865535996327530e-04,0.000000000000000e+00,0.000000000000000e+00,0.000000000000000e+00
2.915535996327530e-04,0.000000000000000e+00,0.000000000000000e+00,0.000000000000000e+00
2.965535996327530e-04,0.000000000000000e+00,0.000000000000000e+00,0.000000000000000e+00
3.015535996327530e-04,0.000000000000000e+00,0.000000000000000e+00,0.000000000000000e+00
3.065535996327531e-04,0.000000000000000e+00,0.000000000000000e+00,0.000000000000000e+00
3.115535996327531e-04,0.000000000000000e+00,0.000000000000000e+00,0.000000000000000e+00
3.165535996327531e-04,0.000000000000000e+00,0.000000000000000e+00,0.000000000000000e+00
3.215535996327531e-04,0.000000000000000e+00,0.000000000000000e+00,0.000000000000000e+00
3.265535996327531e-04,0.000000000000000e+00,0.000000000000000e+00,0.000000000000000e+00
3.315535996327531e-04,0.000000000000000e+00,0.000000000000000e+00,0.000000000000000e+00
3.365535996327531e-04,0.000000000000000e+00,0.000000000000000e+00,0.000000000000000e+00
3.415535996327531e-04,0.000000000000000e+00,0.000000000000000e+00,0.000000000000000e+00
3.465535996327532e-04,0.000000000000000e+00,0.000000000000000e+00,0.000000000000000e+00
3.515535996327532e-04,0.000000000000000e+00,0.000000000000000e+00,0.000000000000000e+00
3.565535996327532e-04,0.000000000000000e+00,0.000000000000000e+00,0.000000000000000e+00
3.615535996327532e-04,0.000000000000000e+00,0.000000000000000e+00,0.000000000000000e+00
3.665535996327532e-04,0.000000000000000e+00,0.000000000000000e+00,0.000000000000000e+00
3.715535996327532e-04,0.000000000000000e+00,0.000000000000000e+00,0.000000000000000e+00
3.765535996327532e-04,0.000000000000000e+00,0.000000000000000e+00,0.000000000000000e+00
3.815535996327533e-04,0.000000000000000e+00,0.000000000000000e+00,0.000000000000000e+00
3.865535996327533e-04,0.000000000000000e+00,0.000000000000000e+00,0.000000000000000e+00
3.915535996327533e-04,0.000000000000000e+00,0.000000000000000e+00,0.000000000000000e+00
3.965535996327533e-04,0.000000000000000e+00,0.000000000000000e+00,0.000000000000000e+00
4.015535996327533e-04,0.000000000000000e+00,0.000000000000000e+00,0.000000000000000e+00
4.065535996327533e-04,0.000000000000000e+00,0.000000000000000e+00,0.000000000000000e+00
4.115535996327533e-04,0.000000000000000e+00,0.000000000000000e+00,0.000000000000000e+00
4.165535996327533e-04,0.000000000000000e+00,0.000000000000000e+00,0.000000000000000e+00
4.215535996327534e-04,0.000000000000000e+00,0.000000000000000e+00,0.000000000000000e+00
4.265535996327534e-04,0.000000000000000e+00,0.000000000000000e+00,0.000000000000000e+00
4.315535996327534e-04,0.000000000000000e+00,0.000000000000000e+00,0.000000000000000e+00
4.365535996327534e-04,0.000000000000000e+00,0.000000000000000e+00,0.000000000000000e+00
4.415535996327534e-04,0.000000000000000e+00,0.000000000000000e+00,0.000000000000000e+00
4.465535996327534e-04,0.000000000000000e+00,0.000000000000000e+00,0.000000000000000e+00
4.515535996327534e-04,0.000000000000000e+00,0.000000000000000e+00,0.000000000000000e+00
4.565535996327534e-04,0.000000000000000e+00,0.000000000000000e+00,0.000000000000000e+00
4.615535996327535e-04,0.000000000000000e+00,0.000000000000000e+00,0.000000000000000e+00
4.665535996327535e-04,0.000000000000000e+00,0.000000000000000e+00,0.000000000000000e+00
4.715535996327535e-04,0.000000000000000e+00,0.000000000000000e+00,0.000000000000000e+00
4.765535996327535e-04,0.000000000000000e+00,0.000000000000000e+00,0.000000000000000e+00
4.815535996327535e-04,0.000000000000000e+00,0.000000000000000e+00,0.000000000000000e+00
4.865535996327535e-04,0.000000000000000e+00,0.000000000000000e+00,0.000000000000000e+00
4.915535996327535e-04,0.000000000000000e+00,0.000000000000000e+00,0.000000000000000e+00
4.965535996327536e-04,0.000000000000000e+00,0.000000000000000e+00,0.000000000000000e+00
5.015535996327536e-04,0.000000000000000e+00,0.000000000000000e+00,0.000000000000000e+00
5.065535996327536e-04,0.000000000000000e+00,0.000000000000000e+00,0.000000000000000e+00
5.115535996327536e-04,0.000000000000000e+00,0.000000000000000e+00,0.000000000000000e+00
5.165535996327536e-04,0.000000000000000e+00,0.000000000000000e+00,0.000000000000000e+00
5.215535996327536e-04,0.000000000000000e+00,0.000000000000000e+00,0.000000000000000e+00
5.265535996327536e-04,0.000000000000000e+00,0.000000000000000e+00,0.000000000000000e+00
5.315535996327536e-04,0.000000000000000e+00,0.000000000000000e+00,0.000000000000000e+00
5.365535996327537e-04,0.000000000000000e+00,0.000000000000000e+00,0.000000000000000e+00
5.415535996327537e-04,0.000000000000000e+00,0.000000000000000e+00,0.000000000000000e+00
5.465535996327537e-04,0.000000000000000e+00,0.000000000000000e+00,0.000000000000000e+00
5.515535996327537e-04,0.000000000000000e+00,0.000000000000000e+00,0.000000000000000e+00
5.565535996327537e-04,0.000000000000000e+00,0.000000000000000e+00,0.000000000000000e+00
5.615535996327537e-04,0.000000000000000e+00,0.000000000000000e+00,0.000000000000000e+00
5.665535996327537e-04,0.000000000000000e+00,0.000000000000000e+00,0.000000000000000e+00
5.715535996327538e-04,0.000000000000000e+00,0.000000000000000e+00,0.000000000000000e+00
5.765535996327538e-04,0.000000000000000e+00,0.000000000000000e+00,0.000000000000000e+00
5.815535996327538e-04,0.000000000000000e+00,0.000000000000000e+00,0.000000000000000e+00
5.865535996327538e-04,0.000000000000000e+00,0.000000000000000e+00,0.000000000000000e+00
5.915535996327538e-04,0.000000000000000e+00,0.000000000000000e+00,0.000000000000000e+00
5.965535996327538e-04,0.000000000000000e+00,0.000000000000000e+00,0.000000000000000e+00
6.015535996327538e-04,0.000000000000000e+00,0.000000000000000e+00,0.000000000000000e+00
6.065535996327538e-04,0.000000000000000e+00,0.000000000000000e+00,0.000000000000000e+00
6.115535996327539e-04,0.000000000000000e+00,0.000000000000000e+00,0.000000000000000e+00
6.165535996327539e-04,0.000000000000000e+00,0.000000000000000e+00,0.000000000000000e+00
6.215535996327539e-04,0.000000000000000e+00,0.000000000000000e+00,0.000000000000000e+00
6.265535996327539e-04,0.000000000000000e+00,0.000000000000000e+00,0.000000000000000e+00
6.315535996327539e-04,0.000000000000000e+00,0.000000000000000e+00,0.000000000000000e+00
6.365535996327539e-04,0.000000000000000e+00,0.000000000000000e+00,0.000000000000000e+00
6.415535996327539e-04,0.000000000000000e+00,0.000000000000000e+00,0.000000000000000e+00
6.465535996327539e-04,0.000000000000000e+00,0.000000000000000e+00,0.000000000000000e+00
6.515535996327540e-04,0.000000000000000e+00,0.000000000000000e+00,0.000000000000000e+00
6.565535996327540e-04,0.000000000000000e+00,0.000000000000000e+00,0.000000000000000e+00
6.615535996327540e-04,0.000000000000000e+00,0.000000000000000e+00,0.000000000000000e+00
6.665535996327540e-04,0.000000000000000e+00,0.000000000000000e+00,0.000000000000000e+00
6.715535996327540e-04,0.000000000000000e+00,0.000000000000000e+00,0.000000000000000e+00
6.765535996327540e-04,0.000000000000000e+00,0.000000000000000e+00,0.000000000000000e+00
6.815535996327540e-04,0.000000000000000e+00,0.000000000000000e+00,0.000000000000000e+00
6.865535996327541e-04,0.000000000000000e+00,0.000000000000000e+00,0.000000000000000e+00
6.915535996327541e-04,0.000000000000000e+00,0.000000000000000e+00,0.000000000000000e+00
6.965535996327541e-04,0.000000000000000e+00,0.000000000000000e+00,0.000000000000000e+00
7.015535996327541e-04,0.000000000000000e+00,0.000000000000000e+00,0.000000000000000e+00
7.065535996327541e-04,0.000000000000000e+00,0.000000000000000e+00,0.000000000000000e+00
7.115535996327541e-04,0.000000000000000e+00,0.000000000000000e+00,0.000000000000000e+00
7.165535996327541e-04,0.000000000000000e+00,0.000000000000000e+00,0.000000000000000e+00
7.215535996327541e-04,0.000000000000000e+00,0.000000000000000e+00,0.000000000000000e+00
7.265535996327542e-04,0.000000000000000e+00,0.000000000000000e+00,0.000000000000000e+00
7.315535996327542e-04,0.000000000000000e+00,0.000000000000000e+00,0.000000000000000e+00
7.365535996327542e-04,0.000000000000000e+00,0.000000000000000e+00,0.000000000000000e+00
7.415535996327542e-04,0.000000000000000e+00,0.000000000000000e+00,0.000000000000000e+00
7.465535996327542e-04,0.000000000000000e+00,0.000000000000000e+00,0.000000000000000e+00
7.515535996327542e-04,0.000000000000000e+00,0.000000000000000e+00,0.000000000000000e+00
7.565535996327542e-04,0.000000000000000e+00,0.000000000000000e+00,0.000000000000000e+00
7.615535996327542e-04,0.000000000000000e+00,0.000000000000000e+00,0.000000000000000e+00
7.665535996327543e-04,0.000000000000000e+00,0.000000000000000e+00,0.000000000000000e+00
7.715535996327543e-04,0.000000000000000e+00,0.000000000000000e+00,0.000000000000000e+00
7.765535996327543e-04,0.000000000000000e+00,0.000000000000000e+00,0.000000000000000e+00
7.815535996327543e-04,0.000000000000000e+00,0.000000000000000e+00,0.000000000000000e+00
7.865535996327543e-04,0.000000000000000e+00,0.000000000000000e+00,0.000000000000000e+00
7.915535996327543e-04,0.000000000000000e+00,0.000000000000000e+00,0.000000000000000e+00
7.965535996327543e-04,0.000000000000000e+00,0.000000000000000e+00,0.000000000000000e+00
8.015535996327544e-04,0.000000000000000e+00,0.000000000000000e+00,0.000000000000000e+00
8.065535996327544e-04,0.000000000000000e+00,0.000000000000000e+00,0.000000000000000e+00
8.115535996327544e-04,0.000000000000000e+00,0.000000000000000e+00,0.000000000000000e+00
8.165535996327544e-04,0.000000000000000e+00,0.000000000000000e+00,0.000000000000000e+00
8.215535996327544e-04,0.000000000000000e+00,0.000000000000000e+00,0.000000000000000e+00
8.265535996327544e-04,0.000000000000000e+00,0.000000000000000e+00,0.000000000000000e+00
8.315535996327544e-04,0.000000000000000e+00,0.000000000000000e+00,0.000000000000000e+00
8.365535996327544e-04,0.000000000000000e+00,0.000000000000000e+00,0.000000000000000e+00
8.415535996327545e-04,0.000000000000000e+00,0.000000000000000e+00,0.000000000000000e+00
8.465535996327545e-04,0.000000000000000e+00,0.000000000000000e+00,0.000000000000000e+00
8.515535996327545e-04,0.000000000000000e+00,0.000000000000000e+00,0.000000000000000e+00
8.565535996327545e-04,0.000000000000000e+00,0.000000000000000e+00,0.000000000000000e+00
8.615535996327545e-04,0.000000000000000e+00,0.000000000000000e+00,0.000000000000000e+00
8.665535996327545e-04,0.000000000000000e+00,0.000000000000000e+00,0.000000000000000e+00
8.715535996327545e-04,0.000000000000000e+00,0.000000000000000e+00,0.000000000000000e+00
8.765535996327546e-04,0.000000000000000e+00,0.000000000000000e+00,0.000000000000000e+00
8.815535996327546e-04,0.000000000000000e+00,0.000000000000000e+00,0.000000000000000e+00
8.865535996327546e-04,0.000000000000000e+00,0.000000000000000e+00,0.000000000000000e+00
8.915535996327546e-04,0.000000000000000e+00,0.000000000000000e+00,0.000000000000000e+00
8.965535996327546e-04,0.000000000000000e+00,0.000000000000000e+00,0.000000000000000e+00
9.015535996327546e-04,0.000000000000000e+00,0.000000000000000e+00,0.000000000000000e+00
9.065535996327546e-04,0.000000000000000e+00,0.000000000000000e+00,0.000000000000000e+00
9.115535996327546e-04,0.000000000000000e+00,0.000000000000000e+00,0.000000000000000e+00
9.165535996327547e-04,0.000000000000000e+00,0.000000000000000e+00,0.000000000000000e+00
9.215535996327547e-04,0.000000000000000e+00,0.000000000000000e+00,0.000000000000000e+00
9.265535996327547e-04,0.000000000000000e+00,0.000000000000000e+00,0.000000000000000e+00
9.315535996327547e-04,0.000000000000000e+00,0.000000000000000e+00,0.000000000000000e+00
9.365535996327547e-04,0.000000000000000e+00,0.000000000000000e+00,0.000000000000000e+00
9.415535996327547e-04,0.000000000000000e+00,0.000000000000000e+00,0.000000000000000e+00
9.465535996327547e-04,0.000000000000000e+00,0.000000000000000e+00,0.000000000000000e+00
9.515535996327547e-04,0.000000000000000e+00,0.000000000000000e+00,0.000000000000000e+00
9.565535996327548e-04,0.000000000000000e+00,0.000000000000000e+00,0.000000000000000e+00
9.615535996327548e-04,0.000000000000000e+00,0.000000000000000e+00,0.000000000000000e+00
9.665535996327548e-04,0.000000000000000e+00,0.000000000000000e+00,0.000000000000000e+00
9.715535996327548e-04,0.000000000000000e+00,0.000000000000000e+00,0.000000000000000e+00
9.765535996327548e-04,0.000000000000000e+00,0.000000000000000e+00,0.000000000000000e+00
9.815535996327547e-04,0.000000000000000e+00,0.000000000000000e+00,0.000000000000000e+00
9.865535996327547e-04,0.000000000000000e+00,0.000000000000000e+00,0.000000000000000e+00
9.915535996327547e-04,0.000000000000000e+00,0.000000000000000e+00,0.000000000000000e+00
9.965535996327548e-04,0.000000000000000e+00,0.000000000000000e+00,0.000000000000000e+00
1.000000000000000e-03,0.000000000000000e+00,0.000000000000000e+00,0.000000000000000e+00
1.001729699276029e-03,7.813300386716709e-04,4.324248190072005e-02,2.162124095036003e-03
1.003041150936101e-03,2.400958424611676e-03,7.602877340252856e-02,3.801438670126428e-03
1.004334954808690e-03,4.839397298624061e-03,1.083738702172378e-01,5.418693510861892e-03
1.006922562553866e-03,1.211989704929358e-02,1.730640638466618e-01,8.653203192333090e-03
1.011922562553867e-03,3.469001490761361e-02,2.980640638466622e-01,1.490320319233311e-02
1.016922562553867e-03,6.760658550751751e-02,4.230640638466626e-01,2.115320319233313e-02
1.021922562553867e-03,1.098245126124816e-01,5.480640638466628e-01,2.740320319233314e-02
1.026922562553867e-03,1.604042652623989e-01,6.730640638466633e-01,3.365320319233316e-02
