time,V(sw),I(Rmotor),I(Dfly)
0.000000000000000e+00,1.199999999963581e+01,2.276001609402556e-11,0.000000000000000e+00
9.999999960041972e-12,1.199999999963590e+01,2.486888472930104e-11,7.815970093361102e-13
1.999999992008394e-11,1.199999999963594e+01,2.486888472930104e-11,8.171241461241152e-13
3.999999984016789e-11,1.199999999963602e+01,2.486888472930104e-11,7.815970093361102e-13
7.999999968033578e-11,1.199999999963617e+01,2.486899575160351e-11,7.105427357601002e-13
1.599999993606716e-10,1.199999999963646e+01,2.486899575160351e-11,7.460698725481052e-13
3.199999987213431e-10,1.199999999963700e+01,2.486899575160351e-11,6.039613253960852e-13
6.399999974426862e-10,1.199999999963805e+01,2.486888472930104e-11,7.460698725481052e-13
1.279999994885372e-09,1.199999999964047e+01,2.486899575160351e-11,7.460698725481052e-13
2.559999989770745e-09,1.199999999964539e+01,2.486877370699858e-11,7.815970093361102e-13
5.119999979541490e-09,1.199999999965566e+01,2.486888472930104e-11,8.526512829121202e-13
1.023999995908298e-08,1.199999999967612e+01,2.486855166239366e-11,7.460698725481052e-13
1.281291001371595e-08,1.199999999968513e+01,2.486821859548627e-11,6.750155989720952e-13
1.795873012298191e-08,1.199999999970313e+01,2.486777450627642e-11,7.460698725481052e-13
1.935870164314311e-08,1.199999999970767e+01,2.486766348397396e-11,5.329070518200751e-13
2.015647492225522e-08,1.199998109696102e+01,3.242650592483187e-11,-9.245960725934310e-06
2.054419775122694e-08,1.199985387559689e+01,6.454581313874996e-11,-1.164711671819418e-04
2.079826989131325e-08,1.199961311037184e+01,1.324981235839573e-10,-2.518848166843668e-04
2.106800215666887e-08,1.199912827692381e+01,3.027263995036833e-10,-4.520697908461102e-04
2.131358284035968e-08,1.199841823434524e+01,6.046991796182510e-10,-6.848515412016809e-04
2.162528726855393e-08,1.199704695590098e+01,1.312825959054464e-09,-1.049630375256072e-03
2.196852081482154e-08,1.199479517074853e+01,2.715094371552595e-09,-1.540974656180083e-03
2.240428981132595e-08,1.199055818386127e+01,5.910578360079910e-09,-2.300120941249872e-03
2.290769685754081e-08,1.198333065854715e+01,1.249000203262796e-08,-3.365470133225301e-03
2.353488722931364e-08,1.197002830883437e+01,2.712950863958952e-08,-4.975090329644161e-03
2.427371354066709e-08,1.194684809956799e+01,5.785913426148426e-08,-7.272657618067058e-03
2.517995168005037e-08,1.190458410246913e+01,1.252189723022212e-07,-1.068317811018460e-02
2.625316339884777e-08,1.182959929487173e+01,2.679293256147020e-07,-1.556503806359189e-02
2.754686897169453e-08,1.169231540096488e+01,5.773086672045125e-07,-2.266298981606241e-02
2.906392416820513e-08,1.144280629749301e+01,1.233570247505256e-06,-3.267241814157273e-02
3.084199564184085e-08,1.097669372270862e+01,2.639102211321465e-06,-4.671542510696014e-02
3.286871802452895e-08,1.009000237861216e+01,5.612351392847437e-06,-6.575618355821433e-02
3.512937651254448e-08,8.384645374708814e+00,1.185920788016048e-05,-9.079592620832244e-02
3.760560084117953e-08,5.106753098376015e+00,2.487258524974667e-05,-1.228061819347026e-01
4.030498924765557e-08,6.411136811509685e-01,4.951024249399971e-05,-8.658538236662183e-02
4.243675384013233e-08,-2.207261209642818e-01,7.464207794305455e-05,4.102329751318134e-02
4.472640729638387e-08,1.272424371863690e-01,1.022213537779093e-04,-2.403612147357126e-02
4.754874486409037e-08,-7.273315067076928e-02,1.360073029920139e-04,1.608812407198484e-02
5.000000000000000e-08,4.625903130791525e-02,1.654487806346250e-04,-1.064511512543109e-02
5.457079599188833e-08,-3.554208277060791e-02,2.202598161248348e-04,8.635755918424415e-03
6.004637263967198e-08,3.217313009074764e-02,2.859537147374969e-04,-7.247793653298862e-03
6.908781997294485e-08,-2.594162579821649e-02,3.943737559725102e-04,6.526164814705665e-03
8.387811945473176e-08,2.852973797659553e-02,5.717238348418308e-04,-6.112830600502120e-03
1.065605707718925e-07,-2.126440744655963e-02,8.435740628831567e-04,5.866318384065497e-03
1.462399313713139e-07,3.005519038467710e-02,1.318865448190043e-03,-5.721192125857505e-03
2.100872758135513e-07,-1.508274651111078e-02,2.082818022777655e-03,5.641748342704728e-03
3.183158350845065e-07,3.831349838211880e-02,3.375577215149805e-03,-5.586416544409722e-03
5.004677742497826e-07,-7.544061332072959e-05,5.544918024136480e-03,5.562676521264436e-03
8.040611988012620e-07,6.302773548612976e-02,9.142808040708772e-03,-5.539388159790104e-03
1.411248047904220e-06,4.595668041396424e-02,1.627250073494513e-02,5.536159011138853e-03
2.411248047904221e-06,1.451526718051791e-01,2.782415051648768e-02,-5.525054016424225e-03
3.411248047904220e-06,1.463508771202099e-01,3.914263082561487e-02,5.525124009215232e-03
4.411248047904220e-06,2.468831311348748e-01,5.023097997037917e-02,-5.513825959657104e-03
5.411248047904220e-06,2.461214606118009e-01,6.109382341201208e-02,5.513676851364724e-03
6.411248047904220e-06,3.481386848504484e-01,7.173400403355323e-02,-5.502167656218360e-03
7.411248047904219e-06,3.453464990008956e-01,8.215606379005447e-02,5.501789764388310e-03
8.411248047904219e-06,4.490128432617603e-01,9.236264690702967e-02,-5.490049291206889e-03
9.411248047904220e-06,4.441087766442601e-01,1.023582216333045e-01,5.489431618815876e-03
1.041124804790422e-05,5.496077935036053e-01,1.121452282354741e-01,-5.477437258551987e-03
1.141124804790422e-05,5.424988456496096e-01,1.217280714356715e-01,5.476567355822137e-03
1.241124804790422e-05,6.500372374712288e-01,1.311089803040441e-01,-5.464293548638199e-03
1.341124804790422e-05,6.406165787422321e-01,1.402923072572994e-01,5.463157235405802e-03
1.441124804790422e-05,7.504289221637315e-01,1.492800605247984e-01,-5.450574872745140e-03
1.541124804790422e-05,7.385731178430388e-01,1.580765527910819e-01,5.449155887287116e-03
1.641124804790422e-05,8.509278975852493e-01,1.666835587608385e-01,-5.436231548221482e-03
1.741124804790422e-05,8.364933483509964e-01,1.751053657271978e-01,5.434511097006656e-03
1.841124804790422e-05,9.517007743154521e-01,1.833434982823470e-01,-5.421206058850991e-03
1.941124804790423e-05,9.345190822100268e-01,1.914022350031832e-01,5.419162230377861e-03
2.041124804790423e-05,1.052941381345434e+00,1.992828286749447e-01,-5.405431166281005e-03
2.141124804790423e-05,1.032813212217153e+00,2.069895689577311e-01,5.403038154678796e-03
2.241124804790423e-05,1.154878428396189e+00,2.145234083201140e-01,-5.388827387342587e-03
2.341124804790423e-05,1.131565221062455e+00,2.218886715558137e-01,5.386054443574650e-03
2.441124804790423e-05,1.257786109561960e+00,2.290859730053197e-01,-5.371299554752795e-03
2.505000000000000e-05,1.213040873112702e+00,2.335974065586526e-01,5.363030044054362e-03
2.510000000000000e-05,1.253021458375942e+01,2.336668964511338e-01,2.336668964261079e-01
2.510043224934203e-05,1.253466287127007e+01,2.336650492130188e-01,2.336650491877990e-01
2.510129674802609e-05,1.253531876438414e+01,2.336613544870743e-01,2.336613544618871e-01
2.510302574539421e-05,1.253479351355390e+01,2.336539650774072e-01,2.336539650521985e-01
2.510463758982906e-05,1.253527205190983e+01,2.336470765781503e-01,2.336470765530052e-01
2.510786127869876e-05,1.253479444840657e+01,2.336333001125365e-01,2.336333000873836e-01
2.511430865643817e-05,1.253526997124527e+01,2.336057493183387e-01,2.336057492929910e-01
2.512681342471379e-05,1.253478689845356e+01,2.335523223647502e-01,2.335523223397118e-01
2.515182296126503e-05,1.253523907262379e+01,2.334455009064467e-01,2.334455008813308e-01
2.520108451764363e-05,1.253473515541416e+01,2.332352197686678e-01,2.332352197434773e-01
2.529886318682915e-05,1.253513333936261e+01,2.328183310633236e-01,2.328183310381249e-01
2.549442052520019e-05,1.253452661311569e+01,2.319865276942790e-01,2.319865276691857e-01
2.588553520194227e-05,1.253471989245048e+01,2.303307856179545e-01,2.303307855926917e-01
2.666776455542644e-05,1.253369141949631e+01,2.270505187817328e-01,2.270505187568617e-01
2.766776455542644e-05,1.253345391475587e+01,2.229169811973937e-01,2.229169811721832e-01
2.866776455542644e-05,1.253225263957397e+01,2.188497730689931e-01,2.188497730437078e-01
2.966776455542644e-05,1.253205549634136e+01,2.148478214602287e-01,2.148478214350646e-01
3.066776455542645e-05,1.253084454774610e+01,2.109100952894399e-01,2.109100952641541e-01
3.166776455542644e-05,1.253066953754419e+01,2.070355640613227e-01,2.070355640361399e-01
3.266776455542644e-05,1.252944356593281e+01,2.032232320733285e-01,2.032232320481242e-01
3.366776455542644e-05,1.252929189319364e+01,1.994721003965063e-01,1.994721003712385e-01
3.466776455542643e-05,1.252804966466724e+01,1.957812056032181e-01,1.957812055780650e-01
3.566776455542643e-05,1.252792183015616e+01,1.921495796664864e-01,1.921495796412387e-01
3.666776455542643e-05,1.252666221168953e+01,1.885762903806799e-01,1.885762903555133e-01
3.766776455542643e-05,1.252655878921770e+01,1.850603995984028e-01,1.850603995731603e-01
3.866776455542642e-05,1.252528061203072e+01,1.816010053838432e-01,1.816010053587291e-01
3.966776455542642e-05,1.252520221871590e+01,1.781971984928900e-01,1.781971984677710e-01
4.066776455542642e-05,1.252390427039257e+01,1.748481063418851e-01,1.748481063167873e-01
4.166776455542641e-05,1.252385157021459e+01,1.715528476420070e-01,1.715528476167805e-01
4.266776455542641e-05,1.252253259124261e+01,1.683105782754181e-01,1.683105782503702e-01
4.366776455542641e-05,1.252250629739883e+01,1.651204439885399e-01,1.651204439633602e-01
4.466776455542641e-05,1.252116497763899e+01,1.619816282734480e-01,1.619816282483910e-01
4.566776455542640e-05,1.252116585516743e+01,1.588933030186517e-01,1.588933029936257e-01
4.666776455542640e-05,1.251980083007565e+01,1.558546784998711e-01,1.558546784746895e-01
4.766776455542640e-05,1.251982969869964e+01,1.528649518804296e-01,1.528649518551717e-01
4.866776455542640e-05,1.251843954527136e+01,1.499233594223192e-01,1.499233593972349e-01
4.966776455542639e-05,1.251849728248873e+01,1.470291227212963e-01,1.470291226960896e-01
5.000000000000000e-05,1.251751272177921e+01,1.460779300092749e-01,1.460779299840809e-01
5.000625000000000e-05,1.251786387462814e+01,1.460600864384735e-01,1.460600864133355e-01
5.001875000000000e-05,1.251786802963900e+01,1.460244028401827e-01,1.460244028151081e-01
5.002762687813826e-05,1.251208081559736e+01,1.459990921292255e-01,1.228530373533587e-01
5.003471198027439e-05,1.249020801201740e+01,1.459789909013977e-01,6.009698285286191e-02
5.003881458103436e-05,1.244035544451004e+01,1.459674995682430e-01,5.763365808988397e-03
5.004123280186287e-05,1.225603012458743e+01,1.459610098118397e-01,-3.240521579993327e-02
5.004307617627898e-05,1.181958338405153e+01,1.459566353791462e-01,-6.454812256549758e-02
5.004475730645016e-05,1.097137913607269e+01,1.459537263421891e-01,-9.615352550955691e-02
5.004739392643266e-05,8.002281757457014e+00,1.459541979973861e-01,-1.501094141263337e-01
5.005000000000000e-05,2.107030183509877e+00,1.459662174609260e-01,-1.771057404134613e-01
5.005139595403283e-05,4.880550553840171e-01,1.459778986899549e-01,4.035794783302848e-02
5.005331383638195e-05,8.182675686560517e-01,1.459951802210033e-01,-2.057775794970018e-02
5.005463466681397e-05,6.629929057390602e-01,1.460069664189029e-01,7.026576323656553e-03
5.005635057837460e-05,7.196530205732584e-01,1.460223620291053e-01,-3.228759154598748e-03
5.005930070919619e-05,6.903708410223932e-01,1.460487901347084e-01,2.086061841641840e-03
5.006309983754717e-05,7.096987162616935e-01,1.460828408136596e-01,-1.502458041060528e-03
5.007069809424912e-05,6.947956192566537e-01,1.461509192064097e-01,1.273740296803272e-03
5.008589460765302e-05,7.092426202921034e-01,1.462870545849411e-01,-1.165588293909892e-03
5.011628763446081e-05,6.981539530106827e-01,1.465591750757681e-01,1.123111164758051e-03
5.017707368807640e-05,7.134983021270854e-01,1.471028899207774e-01,-1.094286703773317e-03
5.029864579530758e-05,7.074159922304915e-01,1.481881722208435e-01,1.088392749728495e-03
5.054179000976993e-05,7.315505288585310e-01,1.503502251765444e-01,-1.077053178628606e-03
5.102807843869464e-05,7.435390085345505e-01,1.546404451282715e-01,1.079822639700190e-03
5.200065529654405e-05,8.040548992099912e-01,1.630865245274462e-01,-1.072703680711218e-03
5.300065529654405e-05,8.412845937094174e-01,1.715863046380304e-01,1.076952065481862e-03
5.400065529654405e-05,9.037719809828358e-01,1.799016964028315e-01,-1.069767393124810e-03
5.500065529654405e-05,9.403926097343038e-01,1.880359289689261e-01,1.073964792515092e-03
5.600065529654404e-05,1.003622366103353e+00,1.959915097668903e-01,-1.066665176772119e-03
5.700065529654404e-05,1.039840962142837e+00,2.037714741889383e-01,1.070833235403690e-03
5.800065529654404e-05,1.103978181931947e+00,2.113781597844602e-01,-1.063398393559289e-03
5.900065529654404e-05,1.139835206958392e+00,2.188144965878772e-01,1.067541695385366e-03
6.000065529654403e-05,1.205071459537753e+00,2.260826435038062e-01,-1.059947934751726e-03
6.100065529654403e-05,1.240617265543535e+00,2.331854248115255e-01,1.064072282468409e-03
6.200065529654403e-05,1.307183722326752e+00,2.401248056412634e-01,-1.056290883645339e-03
6.300065529654402e-05,1.342479098165261e+00,2.469035040952228e-01,1.060403409569588e-03
6.400065529654402e-05,1.410659824344676e+00,2.535232700533022e-01,-1.052398948009348e-03
6.500065529654402e-05,1.445779981539207e+00,2.599867133892989e-01,1.056508613306306e-03
6.600065529654402e-05,1.515931405979664e+00,2.662953379725361e-01,-1.048236498650823e-03
6.700065529654401e-05,1.550971994622195e+00,2.724516409339585e-01,1.052354847081993e-03
6.800065529654401e-05,1.623552575315185e+00,2.784568352168874e-01,-1.043757574317183e-03
6.900065529654401e-05,1.658639224592774e+00,2.843132967473692e-01,1.047899926742701e-03
7.000065529654400e-05,1.734256660889660e+00,2.900218800556662e-01,-1.038901110446133e-03
7.100065529654400e-05,1.769560913063067e+00,2.955848247029627e-01,1.043088558332350e-03
7.200065529654400e-05,1.849051431149358e+00,3.010025213029678e-01,-1.033582914855558e-03
7.300065529654400e-05,1.884819162030956e+00,3.062770457103329e-01,1.037845873130827e-03
7.400065529654399e-05,1.969390048397209e+00,3.114081505259669e-01,-1.027681212186771e-03
7.500065529654399e-05,2.005996734495700e+00,3.163976963402329e-01,1.032066323807257e-03
7.505000000000001e-05,2.035587712024687e+00,3.166402051964756e-01,-9.594819762881457e-04
7.510000000000001e-05,1.254346863585696e+01,3.166223974075759e-01,3.166223973823534e-01
7.510114523872378e-05,1.254732729304870e+01,3.166159686069236e-01,3.166159685815728e-01
7.510343571617132e-05,1.254749855877082e+01,3.166031110526393e-01,3.166031110273693e-01
7.510801667106638e-05,1.254732477954308e+01,3.165773973639777e-01,3.165773973388397e-01
7.511241236018435e-05,1.254747365007912e+01,3.165527254304020e-01,3.165527254050815e-01
7.512120373842030e-05,1.254731619681612e+01,3.165033868069965e-01,3.165033867816902e-01
7.513878649489220e-05,1.254745421465232e+01,3.164047305491611e-01,3.164047305239137e-01
7.517395200783599e-05,1.254727655302572e+01,3.162075019757269e-01,3.162075019505295e-01
7.524428303372357e-05,1.254737365239867e+01,3.158133804043078e-01,3.158133803792751e-01
7.538494508549873e-05,1.254711572993204e+01,3.150264776582455e-01,3.150264776332889e-01
7.566626918904905e-05,1.254705306928134e+01,3.134580185512661e-01,3.134580185260205e-01
7.622891739614969e-05,1.254647362777054e+01,3.103423663486315e-01,3.103423663233684e-01
7.722891739614969e-05,1.254587144385120e+01,3.048741541288291e-01,3.048741541036648e-01
7.822891739614969e-05,1.254496000418424e+01,2.994934951140405e-01,2.994934950888961e-01
7.922891739614968e-05,1.254437106989808e+01,2.941989929118440e-01,2.941989928866917e-01
8.022891739614968e-05,1.254346240834947e+01,2.889892784916158e-01,2.889892784664028e-01
8.122891739614968e-05,1.254288599795658e+01,2.838629997192287e-01,2.838629996939446e-01
8.222891739614967e-05,1.254197803325885e+01,2.788188317922232e-01,2.788188317670404e-01
8.322891739614967e-05,1.254141405412501e+01,2.738554651160892e-01,2.738554650907687e-01
8.422891739614967e-05,1.254050620855482e+01,2.689716169933772e-01,2.689716169681233e-01
8.522891739614967e-05,1.253995457702480e+01,2.641660190210900e-01,2.641660189958728e-01
8.622891739614966e-05,1.253904628460896e+01,2.594374292787117e-01,2.594374292534596e-01
8.722891739614966e-05,1.253850693338514e+01,2.547846192454766e-01,2.547846192202741e-01
8.822891739614966e-05,1.253759762188053e+01,2.502063865005293e-01,2.502063864753623e-01
8.922891739614965e-05,1.253707050013950e+01,2.457015411370550e-01,2.457015411117780e-01
9.022891739614965e-05,1.253615958975707e+01,2.412689189976276e-01,2.412689189723594e-01
9.122891739614965e-05,1.253564466339877e+01,2.369073675607348e-01,2.369073675355793e-01
9.222891739614965e-05,1.253473156567475e+01,2.326157597358364e-01,2.326157597105549e-01
9.322891739614964e-05,1.253422881761359e+01,2.283929791964278e-01,2.283929791712680e-01
9.422891739614964e-05,1.253331293422774e+01,2.242379347607848e-01,2.242379347356405e-01
9.522891739614964e-05,1.253282236473012e+01,2.201495451442265e-01,2.201495451189928e-01
9.622891739614963e-05,1.253190308626233e+01,2.161267539530823e-01,2.161267539279166e-01
9.722891739614963e-05,1.253142471333342e+01,2.121685138272144e-01,2.121685138019913e-01
9.822891739614963e-05,1.253050141795291e+01,2.082738020764190e-01,2.082738020511599e-01
9.922891739614963e-05,1.253003527777622e+01,2.044416041825570e-01,2.044416041573527e-01
1.000000000000000e-04,1.252926571440259e+01,2.015287500055877e-01,2.015287499804685e-01
1.000500000000000e-04,1.344074830116135e+00,2.016206578338241e-01,-4.439819379722376e-02
1.000507011080556e-04,1.144950763198277e+00,2.016260066680852e-01,-1.668706169638323e-02
1.000521033241669e-04,1.002297461804992e+00,2.016368039752608e-01,4.811091885623675e-03
1.000549077563895e-04,1.051218482765977e+00,2.016585289585985e-01,-2.779394667866697e-03
1.000583679824272e-04,1.021917257151847e+00,2.016852989564364e-01,1.792135190923361e-03
1.000636256492945e-04,1.041485046573835e+00,2.017259975195019e-01,-1.360260902152355e-03
1.000741409830291e-04,1.025855621221618e+00,2.018073637247361e-01,1.184378461558389e-03
1.000948509182594e-04,1.041821893999994e+00,2.019675707922537e-01,-1.095557788550749e-03
1.001362707887201e-04,1.030010806311751e+00,2.022877397305782e-01,1.061906466195417e-03
1.002191105296414e-04,1.047794473044154e+00,2.029271941830133e-01,-1.037097461580316e-03
1.003847900114839e-04,1.042643336515968e+00,2.042025185779717e-01,1.033350944941169e-03
1.007161489751690e-04,1.072676497105375e+00,2.067389398067613e-01,-1.022862758026655e-03
1.013788669025393e-04,1.092322814422552e+00,2.117552752845114e-01,1.026259593901457e-03
1.023788669025393e-04,1.156557105533183e+00,2.191831125694358e-01,-1.018802926076035e-03
1.033788669025393e-04,1.192958034866581e+00,2.264431221557630e-01,1.023018279417975e-03
1.043788669025393e-04,1.258254097658860e+00,2.335374414118793e-01,-1.015400823618506e-03
1.053788669025393e-04,1.294286410230041e+00,2.404688834092747e-01,1.019592034365857e-03
1.063788669025393e-04,1.361018006974702e+00,2.472393215319881e-01,-1.011773826062878e-03
1.073788669025393e-04,1.396876553007277e+00,2.538513978102543e-01,1.015962617243460e-03
1.083788669025393e-04,1.465360009538331e+00,2.603067570393446e-01,-1.007904138137228e-03
1.093788669025393e-04,1.501133364058884e+00,2.666079292681571e-01,1.012101209112437e-03
1.103788669025393e-04,1.571768152769560e+00,2.727562948655587e-01,-1.003752410233538e-03
1.113788669025393e-04,1.607573538680698e+00,2.787542636645466e-01,1.007972041575655e-03
1.123788669025393e-04,1.680881314164173e+00,2.846028971064954e-01,-9.992674080860908e-04
1.133788669025393e-04,1.716875615634035e+00,2.903044721069900e-01,1.003528878524840e-03
1.143788669025393e-04,1.793560976942981e+00,2.958596476053800e-01,-9.943797515132857e-04
1.153788669025393e-04,1.829963496719527e+00,3.012705451385296e-01,9.987101883313088e-04
1.163788669025393e-04,1.911019540531565e+00,3.065372868944060e-01,-9.889914253857768e-04
1.173788669025393e-04,1.948154228417811e+00,3.116617981112220e-01,9.934310911630106e-04
