time,V(vin_12v),V(vsense_adc),V(vsense_raw)
0.000000000000000e+00,0.000000000000000e+00,0.000000000000000e+00,0.000000000000000e+00
9.999999439624929e-11,1.199999932754992e-06,2.438491542187083e-14,1.146093527543559e-08
1.999999887924986e-10,2.399999865509983e-06,7.315474393483271e-14,2.292189384031771e-08
3.999999775849972e-10,4.799999731019966e-06,2.194642224813794e-13,4.584385754897056e-08
7.999999551699943e-10,9.599999462039932e-06,8.047020527595120e-13,9.168806443955453e-08
1.599999910339989e-09,1.919999892407986e-05,3.145652646669160e-12,1.833775961133012e-07
3.199999820679977e-09,3.839999784815973e-05,1.250944909281165e-11,3.667611310268353e-07
6.399999641359955e-09,7.679999569631946e-05,4.996458721772829e-11,7.335460870838745e-07
1.279999928271991e-08,1.535999913926389e-04,1.997847579937848e-10,1.467187543844299e-06
2.559999856543982e-08,3.071999827852778e-04,7.990623864321320e-10,2.934756633762246e-06
5.119999713087964e-08,6.143999655705557e-04,3.196148461356778e-09,5.871039501680462e-06
1.023999942617593e-07,1.228799931141111e-03,1.278429725145847e-08,1.174818384980154e-05
2.047999885235186e-07,2.457599862282223e-03,5.113532840173651e-08,2.352078587488670e-05
4.095999770470371e-07,4.915199724564445e-03,2.045269420882882e-07,4.713923427905144e-05
8.191999540940742e-07,9.830399449128890e-03,8.179933283783424e-07,9.466903682812224e-05
1.638399908188148e-06,1.966079889825778e-02,3.271058627938299e-06,1.908996917397926e-04
3.276799816376297e-06,3.932159779651556e-02,1.307692269121106e-05,3.880406196576548e-04
6.553599632752594e-06,7.864319559303112e-02,5.224927902370493e-05,8.010043630618479e-04
1.310719926550519e-05,1.572863911860622e-01,2.085311357159035e-04,1.701367749719356e-03
2.310719926550519e-05,2.772863911860622e-01,6.459898716180306e-04,3.265265375094575e-03
3.310719926550519e-05,3.972863911860622e-01,1.321976497361692e-03,5.056975275875574e-03
4.310719926550518e-05,5.172863911860622e-01,2.234221939210531e-03,7.074330314075739e-03
5.310719926550518e-05,6.372863911860622e-01,3.380478708726346e-03,9.315183967309803e-03
6.310719926550518e-05,7.572863911860621e-01,4.758520697431959e-03,1.177741013268127e-02
7.310719926550518e-05,8.772863911860622e-01,6.366142973427419e-03,1.445890293253545e-02
8.310719926550518e-05,9.972863911860621e-01,8.201161579940958e-03,1.735757652206023e-02
9.310719926550518e-05,1.117286391186062e+00,1.026141333579630e-02,2.047136489871726e-02
1.031071992655052e-04,1.237286391186062e+00,1.254475563777808e-02,2.379822171348585e-02
1.131071992655052e-04,1.357286391186062e+00,1.504906626487732e-02,2.733612008390253e-02
1.231071992655052e-04,1.477286391186062e+00,1.777224318439915e-02,3.108305240887915e-02
1.331071992655052e-04,1.597286391186062e+00,2.071220435991485e-02,3.503703018528255e-02
1.431071992655052e-04,1.717286391186062e+00,2.386688756104098e-02,3.919608382625904e-02
1.531071992655052e-04,1.837286391186062e+00,2.723425017502793e-02,4.355826248128726e-02
1.631071992655052e-04,1.957286391186062e+00,3.081226902014081e-02,4.812163385794264e-02
1.731071992655052e-04,2.077286391186062e+00,3.459894016081566e-02,5.288428404535761e-02
1.831071992655052e-04,2.197286391186062e+00,3.859227872457405e-02,5.784431733936102e-02
1.931071992655052e-04,2.317286391186062e+00,4.279031872067923e-02,6.299985606928107e-02
2.031071992655052e-04,2.437286391186062e+00,4.719111286051752e-02,6.834904042639581e-02
2.131071992655052e-04,2.557286391186062e+00,5.179273237968831e-02,7.389002829401560e-02
2.231071992655052e-04,2.677286391186062e+00,5.659326686178646e-02,7.962099507918186e-02
2.331071992655052e-04,2.797286391186062e+00,6.159082406386105e-02,8.554013354596693e-02
2.431071992655052e-04,2.917286391186062e+00,6.678352974353455e-02,9.164565365035972e-02
2.531071992655052e-04,3.037286391186062e+00,7.216952748776652e-02,9.793578237672206e-02
2.631071992655052e-04,3.157286391186062e+00,7.774697854324628e-02,1.044087635758007e-01
2.731071992655052e-04,3.277286391186062e+00,8.351406164839900e-02,1.110628578042805e-01
2.831071992655052e-04,3.397286391186063e+00,8.946897286698996e-02,1.178963421658637e-01
2.931071992655053e-04,3.517286391186063e+00,9.560992542331155e-02,1.249075101538610e-01
3.031071992655053e-04,3.637286391186064e+00,1.019351495389382e-01,1.320946714952801e-01
3.131071992655053e-04,3.757286391186064e+00,1.084428922710345e-01,1.394561519963979e-01
3.231071992655053e-04,3.877286391186064e+00,1.151314173522007e-01,1.469902933898004e-01
3.331071992655054e-04,3.997286391186064e+00,1.219990050318428e-01,1.546954531828791e-01
3.431071992655054e-04,4.117286391186065e+00,1.290439519190507e-01,1.625700045077682e-01
3.531071992655054e-04,4.237286391186065e+00,1.362645708269713e-01,1.706123359727083e-01
3.631071992655055e-04,4.357286391186065e+00,1.436591906186627e-01,1.788208515148260e-01
3.731071992655055e-04,4.477286391186065e+00,1.512261560544139e-01,1.871939702543124e-01
3.831071992655055e-04,4.597286391186066e+00,1.589638276405171e-01,1.957301263499894e-01
3.931071992655055e-04,4.717286391186066e+00,1.668705814794791e-01,2.044277688562495e-01
4.031071992655056e-04,4.837286391186066e+00,1.749448091216567e-01,2.132853615813572e-01
4.131071992655056e-04,4.957286391186067e+00,1.831849174183049e-01,2.223013829470983e-01
4.231071992655056e-04,5.077286391186068e+00,1.915893283760215e-01,2.314743258497636e-01
4.331071992655056e-04,5.197286391186068e+00,2.001564790125768e-01,2.408026975224553e-01
4.431071992655057e-04,5.317286391186068e+00,2.088848212141157e-01,2.502850193987040e-01
4.531071992655057e-04,5.437286391186069e+00,2.177728215937171e-01,2.599198269773824e-01
4.631071992655057e-04,5.557286391186068e+00,2.268189613512990e-01,2.697056696889039e-01
4.731071992655057e-04,5.677286391186069e+00,2.360217361348567e-01,2.796411107626943e-01
4.831071992655058e-04,5.797286391186069e+00,2.453796559030206e-01,2.897247270959248e-01
4.931071992655058e-04,5.917286391186069e+00,2.548912447889220e-01,2.999551091234925e-01
5.031071992655058e-04,6.037286391186070e+00,2.645550409653534e-01,3.103308606892388e-01
5.131071992655058e-04,6.157286391186070e+00,2.743695965112113e-01,3.208505989183921e-01
5.231071992655059e-04,6.277286391186070e+00,2.843334772792107e-01,3.315129540912249e-01
5.331071992655059e-04,6.397286391186070e+00,2.944452627648563e-01,3.423165695179115e-01
5.431071992655059e-04,6.517286391186071e+00,3.047035459766616e-01,3.532601014145774e-01
5.531071992655060e-04,6.637286391186071e+00,3.151069333076020e-01,3.643422187805267e-01
5.631071992655060e-04,6.757286391186073e+00,3.256540444077906e-01,3.755616032766390e-01
5.731071992655060e-04,6.877286391186072e+00,3.363435120583653e-01,3.869169491049204e-01
5.831071992655060e-04,6.997286391186073e+00,3.471739820465762e-01,3.984069628892040e-01
5.931071992655061e-04,7.117286391186072e+00,3.581441130420600e-01,4.100303635569812e-01
6.031071992655061e-04,7.237286391186073e+00,3.692525764742927e-01,4.217858822223609e-01
6.131071992655061e-04,7.357286391186072e+00,3.804980564112075e-01,4.336722620701394e-01
6.231071992655061e-04,7.477286391186074e+00,3.918792494389668e-01,4.456882582409743e-01
6.331071992655062e-04,7.597286391186074e+00,4.033948645428793e-01,4.578326377176505e-01
6.431071992655062e-04,7.717286391186074e+00,4.150436229894484e-01,4.701041792124283e-01
6.531071992655062e-04,7.837286391186074e+00,4.268242582095439e-01,4.825016730554625e-01
6.631071992655062e-04,7.957286391186075e+00,4.387355156826841e-01,4.950239210842841e-01
6.731071992655063e-04,8.077286391186075e+00,4.507761528224193e-01,5.076697365343319e-01
6.831071992655063e-04,8.197286391186076e+00,4.629449388628057e-01,5.204379439305269e-01
6.931071992655063e-04,8.317286391186077e+00,4.752406547459587e-01,5.333273789798770e-01
7.031071992655063e-04,8.437286391186076e+00,4.876620930106763e-01,5.463368884651043e-01
7.131071992655064e-04,8.557286391186077e+00,5.002080576821217e-01,5.594653301392829e-01
7.231071992655064e-04,8.677286391186076e+00,5.128773641625561e-01,5.727115726214805e-01
7.331071992655064e-04,8.797286391186077e+00,5.256688391231098e-01,5.860744952933925e-01
7.431071992655065e-04,8.917286391186076e+00,5.385813203965838e-01,5.995529881969579e-01
7.531071992655065e-04,9.037286391186079e+00,5.516136568712703e-01,6.131459519329515e-01
7.631071992655065e-04,9.157286391186078e+00,5.647647083857845e-01,6.268522975605384e-01
7.731071992655065e-04,9.277286391186077e+00,5.780333456248954e-01,6.406709464977862e-01
7.831071992655066e-04,9.397286391186078e+00,5.914184500163487e-01,6.546008304231218e-01
7.931071992655066e-04,9.517286391186079e+00,6.049189136286708e-01,6.686408911777273e-01
8.031071992655066e-04,9.637286391186079e+00,6.185336390699445e-01,6.827900806688625e-01
8.131071992655066e-04,9.757286391186078e+00,6.322615393875484e-01,6.970473607741084e-01
8.231071992655067e-04,9.877286391186081e+00,6.461015379688494e-01,7.114117032465219e-01
8.331071992655067e-04,9.997286391186080e+00,6.600525684428410e-01,7.258820896206915e-01
8.431071992655067e-04,1.011728639118608e+01,6.741135745827156e-01,7.404575111196874e-01
8.531071992655067e-04,1.023728639118608e+01,6.882835102093647e-01,7.551369685628966e-01
8.631071992655068e-04,1.035728639118608e+01,7.025613390957977e-01,7.699194722747357e-01
8.731071992655068e-04,1.047728639118608e+01,7.169460348724677e-01,7.848040419942295e-01
8.831071992655068e-04,1.059728639118608e+01,7.314365809335007e-01,7.997897067854531e-01
8.931071992655068e-04,1.071728639118608e+01,7.460319703438155e-01,8.148755049488241e-01
9.031071992655069e-04,1.083728639118608e+01,7.607312057471259e-01,8.300604839332381e-01
9.131071992655069e-04,1.095728639118608e+01,7.755332992748207e-01,8.453437002490414e-01
9.231071992655069e-04,1.107728639118608e+01,7.904372724557081e-01,8.607242193818309e-01
9.331071992655069e-04,1.119728639118608e+01,8.054421561266204e-01,8.762011157070743e-01
9.431071992655070e-04,1.131728639118608e+01,8.205469903438678e-01,8.917734724055419e-01
9.531071992655070e-04,1.143728639118608e+01,8.357508242955357e-01,9.074403813795439e-01
9.631071992655070e-04,1.155728639118608e+01,8.510527162146158e-01,9.232009431699634e-01
9.731071992655071e-04,1.167728639118608e+01,8.664517332929627e-01,9.390542668740797e-01
9.831071992655071e-04,1.179728639118608e+01,8.819469515960703e-01,9.549994700641719e-01
9.931071992655071e-04,1.191728639118609e+01,8.975374559786594e-01,9.710356787068994e-01
1.000000000000000e-03,1.200000000000000e+01,9.083387085291716e-01,9.821416742231210e-01
1.001000000000000e-03,1.200000000000000e+01,9.099074849135500e-01,9.836399749793366e-01
1.003000000000000e-03,1.200000000000000e+01,9.130420415831636e-01,9.866337149892258e-01
1.007000000000000e-03,1.200000000000000e+01,9.192932126270530e-01,9.926040587524029e-01
1.015000000000000e-03,1.200000000000000e+01,9.317241272223041e-01,1.004476527591164e+00
1.025000000000000e-03,1.200000000000000e+01,9.471297357316195e-01,1.019190055350326e+00
1.035000000000000e-03,1.200000000000000e+01,9.623887934049535e-01,1.033763615915591e+00
1.045000000000000e-03,1.200000000000000e+01,9.775026943545554e-01,1.048198540770180e+00
1.055000000000000e-03,1.200000000000000e+01,9.924728194307302e-01,1.062496148731154e+00
1.065000000000000e-03,1.200000000000000e+01,1.007300536347998e+00,1.076657746069895e+00
1.075000000000000e-03,1.200000000000000e+01,1.021987199810051e+00,1.090684626631460e+00
1.085000000000000e-03,1.200000000000000e+01,1.036534151633526e+00,1.104578071952784e+00
1.095000000000000e-03,1.200000000000000e+01,1.050942720870592e+00,1.118339351379766e+00
1.105000000000000e-03,1.200000000000000e+01,1.065214223930383e+00,1.131969722183245e+00
1.115000000000000e-03,1.200000000000000e+01,1.079349964699262e+00,1.145470429673861e+00
1.125000000000000e-03,1.200000000000000e+01,1.093351234659951e+00,1.158842707315836e+00
1.135000000000000e-03,1.200000000000000e+01,1.107219313009527e+00,1.172087776839662e+00
1.145000000000000e-03,1.200000000000000e+01,1.120955466776290e+00,1.185206848353725e+00
1.155000000000000e-03,1.200000000000000e+01,1.134560950935521e+00,1.198201120454866e+00
1.165000000000000e-03,1.200000000000000e+01,1.148037008524146e+00,1.211071780337883e+00
1.175000000000000e-03,1.200000000000000e+01,1.161384870754299e+00,1.223820003903999e+00
1.185000000000001e-03,1.200000000000000e+01,1.174605757125808e+00,1.236446955868299e+00
1.195000000000001e-03,1.200000000000000e+01,1.187700875537617e+00,1.248953789866136e+00
1.205000000000001e-03,1.200000000000000e+01,1.200671422398139e+00,1.261341648558534e+00
1.215000000000001e-03,1.200000000000000e+01,1.213518582734565e+00,1.273611663736585e+00
1.225000000000001e-03,1.200000000000000e+01,1.226243530301133e+00,1.285764956424853e+00
1.235000000000001e-03,1.200000000000000e+01,1.238847427686361e+00,1.297802636983790e+00
1.245000000000001e-03,1.200000000000000e+01,1.251331426419269e+00,1.309725805211187e+00
1.255000000000001e-03,1.200000000000000e+01,1.263696667074586e+00,1.321535550442654e+00
1.265000000000001e-03,1.200000000000000e+01,1.275944279376953e+00,1.333232951651140e+00
1.275000000000001e-03,1.200000000000000e+01,1.288075382304141e+00,1.344819077545518e+00
1.285000000000001e-03,1.200000000000000e+01,1.300091084189280e+00,1.356294986668219e+00
1.295000000000001e-03,1.200000000000000e+01,1.311992482822126e+00,1.367661727491949e+00
1.305000000000001e-03,1.200000000000000e+01,1.323780665549354e+00,1.378920338515477e+00
1.315000000000001e-03,1.200000000000000e+01,1.335456709373900e+00,1.390071848358518e+00
1.325000000000001e-03,1.200000000000000e+01,1.347021681053363e+00,1.401117275855706e+00
1.335000000000001e-03,1.200000000000000e+01,1.358476637197465e+00,1.412057630149683e+00
1.345000000000001e-03,1.200000000000000e+01,1.369822624364585e+00,1.422893910783296e+00
1.355000000000001e-03,1.200000000000000e+01,1.381060679157377e+00,1.433627107790915e+00
1.365000000000001e-03,1.200000000000000e+01,1.392191828317477e+00,1.444258201788889e+00
1.375000000000001e-03,1.200000000000000e+01,1.403217088819311e+00,1.454788164065136e+00
1.385000000000001e-03,1.200000000000000e+01,1.414137467963002e+00,1.465217956667883e+00
1.395000000000001e-03,1.200000000000000e+01,1.424953963466410e+00,1.475548532493564e+00
1.405000000000001e-03,1.200000000000000e+01,1.435667563556276e+00,1.485780835373876e+00
1.415000000000001e-03,1.200000000000000e+01,1.446279247058519e+00,1.495915800162010e+00
1.425000000000001e-03,1.200000000000000e+01,1.456789983487657e+00,1.505954352818066e+00
1.435000000000001e-03,1.200000000000000e+01,1.467200733135388e+00,1.515897410493649e+00
1.445000000000001e-03,1.200000000000000e+01,1.477512447158323e+00,1.525745881615660e+00
1.455000000000001e-03,1.200000000000000e+01,1.487726067664891e+00,1.535500665969298e+00
1.465000000000001e-03,1.200000000000000e+01,1.497842527801408e+00,1.545162654780262e+00
1.475000000000001e-03,1.200000000000000e+01,1.507862751837333e+00,1.554732730796179e+00
1.485000000000001e-03,1.200000000000000e+01,1.517787655249714e+00,1.564211768367255e+00
1.495000000000001e-03,1.200000000000000e+01,1.527618144806827e+00,1.573600633526153e+00
1.505000000000001e-03,1.200000000000000e+01,1.537355118651021e+00,1.582900184067123e+00
1.515000000000001e-03,1.200000000000000e+01,1.546999466380775e+00,1.592111269624370e+00
1.525000000000001e-03,1.200000000000000e+01,1.556552069131976e+00,1.601234731749676e+00
1.535000000000001e-03,1.200000000000000e+01,1.566013799658419e+00,1.610271403989293e+00
1.545000000000001e-03,1.200000000000000e+01,1.575385522411548e+00,1.619222111960092e+00
1.555000000000001e-03,1.200000000000000e+01,1.584668093619431e+00,1.628087673424996e+00
1.565000000000002e-03,1.200000000000000e+01,1.593862361364991e+00,1.636868898367696e+00
1.575000000000002e-03,1.200000000000000e+01,1.602969165663487e+00,1.645566589066648e+00
1.585000000000002e-03,1.200000000000000e+01,1.611989338539261e+00,1.654181540168377e+00
1.595000000000002e-03,1.200000000000000e+01,1.620923704101753e+00,1.662714538760075e+00
1.605000000000002e-03,1.200000000000000e+01,1.629773078620799e+00,1.671166364441513e+00
1.615000000000002e-03,1.200000000000000e+01,1.638538270601200e+00,1.679537789396265e+00
1.625000000000002e-03,1.200000000000000e+01,1.647220080856596e+00,1.687829578462260e+00
1.635000000000002e-03,1.200000000000000e+01,1.655819302582627e+00,1.696042489201660e+00
1.645000000000002e-03,1.200000000000000e+01,1.664336721429402e+00,1.704177271970070e+00
1.655000000000002e-03,1.200000000000000e+01,1.672773115573283e+00,1.712234669985095e+00
1.665000000000002e-03,1.200000000000000e+01,1.681129255787972e+00,1.720215419394242e+00
1.675000000000002e-03,1.200000000000000e+01,1.689405905514940e+00,1.728120249342178e+00
1.685000000000002e-03,1.200000000000000e+01,1.697603820933174e+00,1.735949882037343e+00
1.695000000000002e-03,1.200000000000000e+01,1.705723751028263e+00,1.743705032817938e+00
1.705000000000002e-03,1.200000000000000e+01,1.713766437660828e+00,1.751386410217275e+00
1.715000000000002e-03,1.200000000000000e+01,1.721732615634302e+00,1.758994716028516e+00
1.725000000000002e-03,1.200000000000000e+01,1.729623012762061e+00,1.766530645368788e+00
1.735000000000002e-03,1.200000000000000e+01,1.737438349933921e+00,1.773994886742691e+00
1.745000000000002e-03,1.200000000000000e+01,1.745179341182002e+00,1.781388122105202e+00
1.755000000000002e-03,1.200000000000000e+01,1.752846693745961e+00,1.788711026923981e+00
1.765000000000002e-03,1.200000000000000e+01,1.760441108137609e+00,1.795964270241083e+00
1.775000000000002e-03,1.200000000000000e+01,1.767963278204911e+00,1.803148514734086e+00
1.785000000000002e-03,1.200000000000000e+01,1.775413891195381e+00,1.810264416776628e+00
1.795000000000002e-03,1.200000000000000e+01,1.782793627818866e+00,1.817312626498386e+00
1.805000000000002e-03,1.200000000000000e+01,1.790103162309743e+00,1.824293787844466e+00
1.815000000000002e-03,1.200000000000000e+01,1.797343162488513e+00,1.831208538634236e+00
1.825000000000002e-03,1.200000000000000e+01,1.804514289822822e+00,1.838057510619603e+00
1.835000000000002e-03,1.200000000000000e+01,1.811617199487887e+00,1.844841329542729e+00
1.845000000000002e-03,1.200000000000000e+01,1.818652540426363e+00,1.851560615193201e+00
1.855000000000002e-03,1.200000000000000e+01,1.825620955407625e+00,1.858215981464657e+00
1.865000000000002e-03,1.200000000000000e+01,1.832523081086497e+00,1.864808036410875e+00
1.875000000000002e-03,1.200000000000000e+01,1.839359548061420e+00,1.871337382301321e+00
1.885000000000002e-03,1.200000000000000e+01,1.846130980932061e+00,1.877804615676181e+00
1.895000000000002e-03,1.200000000000000e+01,1.852837998356379e+00,1.884210327400857e+00
1.905000000000002e-03,1.200000000000000e+01,1.859481213107153e+00,1.890555102719955e+00
1.915000000000002e-03,1.200000000000000e+01,1.866061232127960e+00,1.896839521310751e+00
1.925000000000002e-03,1.200000000000000e+01,1.872578656588631e+00,1.903064157336153e+00
1.935000000000002e-03,1.200000000000000e+01,1.879034081940173e+00,1.909229579497159e+00
1.945000000000002e-03,1.200000000000000e+01,1.885428097969175e+00,1.915336351084815e+00
1.955000000000002e-03,1.200000000000000e+01,1.891761288851689e+00,1.921385030031680e+00
1.965000000000002e-03,1.200000000000000e+01,1.898034233206601e+00,1.927376168962796e+00
1.975000000000002e-03,1.200000000000000e+01,1.904247504148502e+00,1.933310315246182e+00
1.985000000000002e-03,1.200000000000000e+01,1.910401669340042e+00,1.939188011042841e+00
1.995000000000002e-03,1.200000000000000e+01,1.916497291043797e+00,1.945009793356297e+00
2.005000000000002e-03,1.200000000000000e+01,1.922534926173638e+00,1.950776194081649e+00
2.015000000000002e-03,1.200000000000000e+01,1.928515126345613e+00,1.956487740054175e+00
2.025000000000002e-03,1.200000000000000e+01,1.934438437928344e+00,1.962144953097463e+00
2.035000000000003e-03,1.200000000000000e+01,1.940305402092945e+00,1.967748350071083e+00
2.045000000000003e-03,1.200000000000000e+01,1.946116554862464e+00,1.973298442917812e+00
2.055000000000003e-03,1.200000000000000e+01,1.951872427160856e+00,1.978795738710403e+00
